Circuit: * C:\Users\djsce.student\MATLAB\Projects\RIA_PSY\exp6b.asc

Direct Newton iteration for .op point succeeded.
Semiconductor Device Operating Points:
                        --- Diodes ---
Name:    d:u1:1      d:u1:4
Model:    u1:x        u1:di
Id:     -2.95e-15   -2.53e-15
Vd:     -2.95e-03   -2.53e-06
Req:     1.00e-12    1.00e-09
CAP:     0.00e+00    0.00e+00

                        --- VDMOSFET Transistors ---
Name:        m:u1:1      m:u1:2
Model:        u1:n        u1:p
Id:          2.29e-03   -2.21e-03
Vgs:         2.95e-03    2.95e-03
Vds:         3.11e+00   -6.89e+00
Vth:        -3.00e-01    3.00e-01
Gm:          1.51e-02    1.49e-02
Gds:         0.00e+00    0.00e+00
Cgs:         0.00e+00    0.00e+00
Cgd:         0.00e+00    0.00e+00
Cbody:       0.00e+00    0.00e+00



Date: Sat Mar 16 11:23:58 2024
Total elapsed time: 10.391 seconds.

tnom = 27
temp = 27
method = trap
totiter = 12
traniter = 0
tranpoints = 0
accept = 0
rejected = 0
matrix size = 15
fillins = 3
solver = Normal
Avg thread counts: 12.0/0.0/12.0/12.0
Matrix Compiler1: 882 bytes object code size
Matrix Compiler2: 1.43 KB object code size
